<Qucs Dataset 0.0.19>
<indep frequency 191>
  +1.00000000000000000000e+008
  +1.12105263157894730568e+008
  +1.24210526315789476037e+008
  +1.36315789473684221506e+008
  +1.48421052631578952074e+008
  +1.60526315789473682642e+008
  +1.72631578947368413210e+008
  +1.84736842105263143778e+008
  +1.96842105263157904148e+008
  +2.08947368421052634716e+008
  +2.21052631578947365284e+008
  +2.33157894736842095852e+008
  +2.45263157894736856222e+008
  +2.57368421052631586790e+008
  +2.69473684210526287556e+008
  +2.81578947368421077728e+008
  +2.93684210526315808296e+008
  +3.05789473684210538864e+008
  +3.17894736842105269432e+008
  +3.30000000000000000000e+008
  +3.42105263157894730568e+008
  +3.54210526315789461136e+008
  +3.66315789473684191704e+008
  +3.78421052631578922272e+008
  +3.90526315789473712444e+008
  +4.02631578947368443012e+008
  +4.14736842105263173580e+008
  +4.26842105263157904148e+008
  +4.38947368421052634716e+008
  +4.51052631578947365284e+008
  +4.63157894736842095852e+008
  +4.75263157894736826420e+008
  +4.87368421052631556988e+008
  +4.99473684210526287556e+008
  +5.11578947368421077728e+008
  +5.23684210526315808296e+008
  +5.35789473684210538864e+008
  +5.47894736842105269432e+008
  +5.60000000000000000000e+008
  +5.72105263157894730568e+008
  +5.84210526315789461136e+008
  +5.96315789473684191704e+008
  +6.08421052631578922272e+008
  +6.20526315789473652840e+008
  +6.32631578947368383408e+008
  +6.44736842105263113976e+008
  +6.56842105263157844543e+008
  +6.68947368421052575111e+008
  +6.81052631578947424889e+008
  +6.93157894736842155457e+008
  +7.05263157894736886024e+008
  +7.17368421052631616592e+008
  +7.29473684210526347160e+008
  +7.41578947368421077728e+008
  +7.53684210526315808296e+008
  +7.65789473684210538864e+008
  +7.77894736842105269432e+008
  +7.90000000000000000000e+008
  +8.02105263157894730568e+008
  +8.14210526315789461136e+008
  +8.26315789473684191704e+008
  +8.38421052631578922272e+008
  +8.50526315789473652840e+008
  +8.62631578947368383408e+008
  +8.74736842105263113976e+008
  +8.86842105263157844543e+008
  +8.98947368421052575111e+008
  +9.11052631578947424889e+008
  +9.23157894736842155457e+008
  +9.35263157894736886024e+008
  +9.47368421052631616592e+008
  +9.59473684210526347160e+008
  +9.71578947368421077728e+008
  +9.83684210526315808296e+008
  +9.95789473684210538864e+008
  +1.00789473684210526943e+009
  +1.02000000000000000000e+009
  +1.03210526315789473057e+009
  +1.04421052631578946114e+009
  +1.05631578947368419170e+009
  +1.06842105263157892227e+009
  +1.08052631578947377205e+009
  +1.09263157894736838341e+009
  +1.10473684210526323318e+009
  +1.11684210526315784454e+009
  +1.12894736842105269432e+009
  +1.14105263157894730568e+009
  +1.15315789473684215546e+009
  +1.16526315789473676682e+009
  +1.17736842105263161659e+009
  +1.18947368421052622795e+009
  +1.20157894736842107773e+009
  +1.21368421052631568909e+009
  +1.22578947368421053886e+009
  +1.23789473684210515022e+009
  +1.25000000000000000000e+009
  +1.26210526315789484978e+009
  +1.27421052631578946114e+009
  +1.28631578947368431091e+009
  +1.29842105263157892227e+009
  +1.31052631578947377205e+009
  +1.32263157894736838341e+009
  +1.33473684210526323318e+009
  +1.34684210526315784454e+009
  +1.35894736842105269432e+009
  +1.37105263157894730568e+009
  +1.38315789473684215546e+009
  +1.39526315789473676682e+009
  +1.40736842105263161659e+009
  +1.41947368421052622795e+009
  +1.43157894736842107773e+009
  +1.44368421052631568909e+009
  +1.45578947368421053886e+009
  +1.46789473684210515022e+009
  +1.48000000000000000000e+009
  +1.49210526315789484978e+009
  +1.50421052631578946114e+009
  +1.51631578947368431091e+009
  +1.52842105263157892227e+009
  +1.54052631578947377205e+009
  +1.55263157894736838341e+009
  +1.56473684210526323318e+009
  +1.57684210526315784454e+009
  +1.58894736842105269432e+009
  +1.60105263157894730568e+009
  +1.61315789473684215546e+009
  +1.62526315789473676682e+009
  +1.63736842105263161659e+009
  +1.64947368421052622795e+009
  +1.66157894736842107773e+009
  +1.67368421052631568909e+009
  +1.68578947368421053886e+009
  +1.69789473684210515022e+009
  +1.71000000000000000000e+009
  +1.72210526315789484978e+009
  +1.73421052631578946114e+009
  +1.74631578947368431091e+009
  +1.75842105263157892227e+009
  +1.77052631578947377205e+009
  +1.78263157894736838341e+009
  +1.79473684210526323318e+009
  +1.80684210526315784454e+009
  +1.81894736842105269432e+009
  +1.83105263157894730568e+009
  +1.84315789473684215546e+009
  +1.85526315789473676682e+009
  +1.86736842105263161659e+009
  +1.87947368421052622795e+009
  +1.89157894736842107773e+009
  +1.90368421052631568909e+009
  +1.91578947368421053886e+009
  +1.92789473684210515022e+009
  +1.94000000000000000000e+009
  +1.95210526315789484978e+009
  +1.96421052631578946114e+009
  +1.97631578947368431091e+009
  +1.98842105263157892227e+009
  +2.00052631578947377205e+009
  +2.01263157894736838341e+009
  +2.02473684210526323318e+009
  +2.03684210526315784454e+009
  +2.04894736842105269432e+009
  +2.06105263157894730568e+009
  +2.07315789473684215546e+009
  +2.08526315789473676682e+009
  +2.09736842105263161659e+009
  +2.10947368421052622795e+009
  +2.12157894736842107773e+009
  +2.13368421052631568909e+009
  +2.14578947368421053886e+009
  +2.15789473684210538864e+009
  +2.17000000000000000000e+009
  +2.18210526315789461136e+009
  +2.19421052631578969955e+009
  +2.20631578947368431091e+009
  +2.21842105263157892227e+009
  +2.23052631578947353363e+009
  +2.24263157894736862183e+009
  +2.25473684210526323318e+009
  +2.26684210526315784454e+009
  +2.27894736842105245590e+009
  +2.29105263157894754410e+009
  +2.30315789473684215546e+009
  +2.31526315789473676682e+009
  +2.32736842105263137817e+009
  +2.33947368421052646637e+009
  +2.35157894736842107773e+009
  +2.36368421052631568909e+009
  +2.37578947368421030045e+009
  +2.38789473684210538864e+009
  +2.40000000000000000000e+009
</indep>
<dep dBS11 frequency>
  -1.03010687874917877815e-001
  -1.02899999519650814372e-001
  -1.02448036662947411513e-001
  -1.01436235497990842602e-001
  -1.00292924625767443381e-001
  -9.97156974544211593958e-002
  -9.88261260411095188161e-002
  -9.76874549074501774548e-002
  -9.60884859629264065362e-002
  -9.50731108035350325203e-002
  -9.42282538046873702209e-002
  -9.28949038840882201917e-002
  -9.13346448189582410526e-002
  -8.95225703474172573859e-002
  -8.79057404678263432096e-002
  -8.61403236140837191837e-002
  -8.37568068953546962518e-002
  -8.16317326792890818332e-002
  -7.98164488876351579938e-002
  -7.76179640620328348266e-002
  -7.51566489275920374125e-002
  -7.24590794076219180120e-002
  -6.94749935103155524807e-002
  -6.61954720429521331626e-002
  -6.26761863766932131314e-002
  -5.90400503643228741213e-002
  -5.57237149109672119662e-002
  -5.17850166639626033338e-002
  -4.72654585685346947943e-002
  -4.24756284870061034953e-002
  -3.82899761267953553379e-002
  -3.35832930039851040860e-002
  -2.82556648118867902164e-002
  -2.23370398508920750547e-002
  -1.71551633445507188680e-002
  -1.14842107329227189477e-002
  -5.04673585970006124968e-003
  +2.09622053480902886119e-003
  +9.91928895085009143529e-003
  +1.90275398736873234407e-002
  +2.89691591450372092076e-002
  +3.98629653403071021467e-002
  +5.02854734884797191508e-002
  +6.09233580188830239899e-002
  +7.21493303365539490057e-002
  +8.49037272312291729781e-002
  +9.96388730559089608185e-002
  +1.15282947078140782238e-001
  +1.32487789644801290390e-001
  +1.53121549210057494861e-001
  +1.74501438201635522551e-001
  +1.96089874103885924983e-001
  +2.20215267701938638423e-001
  +2.47036722067841385542e-001
  +2.76663939509624479118e-001
  +3.11033003906950877848e-001
  +3.51195621041133276830e-001
  +3.96691992752455424576e-001
  +4.47810382188862599051e-001
  +5.02081291839395649212e-001
  +5.65087546570866572360e-001
  +6.38704471466876144703e-001
  +7.24894764993196272229e-001
  +8.26292404159486792992e-001
  +9.46955876662308071445e-001
  +1.09288340289181173937e+000
  +1.27026148163628160859e+000
  +1.46827209233988864590e+000
  +1.70767605187776805309e+000
  +2.00671512248850092419e+000
  +2.36501156532556366940e+000
  +2.78550438408036837856e+000
  +3.26427373406877574524e+000
  +3.76111416997434222509e+000
  +4.18021194480597202414e+000
  +4.40964801473012002475e+000
  +4.36612304299219999848e+000
  +4.02655518824117120147e+000
  +3.48540517099727953365e+000
  +2.87829439575704881804e+000
  +2.30225942158514307323e+000
  +1.80340236971139877831e+000
  +1.39549699249982261939e+000
  +1.07288011857705245511e+000
  +8.20951271873630927800e-001
  +6.18064598432326750554e-001
  +4.56879910316716209007e-001
  +3.31665711787774764030e-001
  +2.30946958976530308805e-001
  +1.49804974891765418921e-001
  +8.39395335607492770746e-002
  +3.01972588762433775955e-002
  -1.29958590208204965988e-002
  -4.88648037888187516953e-002
  -7.87623330226390333531e-002
  -1.03850971337802272521e-001
  -1.25062583618811867803e-001
  -1.43056220381909904305e-001
  -1.58224048152723062444e-001
  -1.71030740866043889925e-001
  -1.81971404566702271710e-001
  -1.91324339043759172885e-001
  -1.99174987428772265474e-001
  -2.06181677253879314105e-001
  -2.12364311025506014019e-001
  -2.17119518487075668922e-001
  -2.21216196745365467624e-001
  -2.24902867972832126719e-001
  -2.28125180514811010113e-001
  -2.30931060570102764107e-001
  -2.33531620981833720752e-001
  -2.35649041425221833501e-001
  -2.37188381794867231278e-001
  -2.38726459476053420872e-001
  -2.40142801691273277687e-001
  -2.40836222546512934706e-001
  -2.41227266784176802572e-001
  -2.41245781413314430708e-001
  -2.41726319359182734159e-001
  -2.42277365951681505907e-001
  -2.41908355094684918152e-001
  -2.41727453485047177884e-001
  -2.41864533906058110091e-001
  -2.41423741363949201366e-001
  -2.40770195128146707875e-001
  -2.40276380264519445751e-001
  -2.39628382209709112072e-001
  -2.38802670804979660923e-001
  -2.38059523696420721750e-001
  -2.37298938583932722546e-001
  -2.36417316143819083996e-001
  -2.35506500810421848247e-001
  -2.34574193040188588855e-001
  -2.33851956679040517972e-001
  -2.33179225209378421235e-001
  -2.32592315587166892366e-001
  -2.31737336654751657772e-001
  -2.30650945521380518199e-001
  -2.29913285990847621187e-001
  -2.29162510085382020719e-001
  -2.28252431091090779436e-001
  -2.27153698474941739827e-001
  -2.25914521249769184585e-001
  -2.25009906726540004351e-001
  -2.24042543948695493938e-001
  -2.22846872788649952302e-001
  -2.21794788172884838051e-001
  -2.20821904667056506666e-001
  -2.19483937900027681334e-001
  -2.18292852899672373823e-001
  -2.17466946925152004866e-001
  -2.16506923232221926146e-001
  -2.15479028154811624862e-001
  -2.14582018153909703795e-001
  -2.13600584185555775196e-001
  -2.12477658760229337620e-001
  -2.11553691582075209521e-001
  -2.10695804580875306611e-001
  -2.09477478092574942448e-001
  -2.08365171311037156165e-001
  -2.07406911598047416501e-001
  -2.06293412285050686839e-001
  -2.05150424810251863494e-001
  -2.04231175349431387511e-001
  -2.03155683944695242271e-001
  -2.01886710591128615278e-001
  -2.00818856985231830592e-001
  -1.99781174241749404086e-001
  -1.98593082541863308332e-001
  -1.97432854317527411991e-001
  -1.96303806195216756780e-001
  -1.95101487550084384814e-001
  -1.93903629500825180898e-001
  -1.92810801756247596206e-001
  -1.91711727765896011721e-001
  -1.90609347949989293980e-001
  -1.89680881143189622451e-001
  -1.88723415574261865757e-001
  -1.87592214415317176668e-001
  -1.86501046887700999699e-001
  -1.85435891143198028352e-001
  -1.84286528957327833123e-001
  -1.83166673782031413920e-001
  -1.82151885738972230122e-001
  -1.81021627752966957070e-001
  -1.79816116530399888740e-001
  -1.78608498939180904141e-001
  -1.77461337902172805459e-001
  -1.76448791406736693599e-001
  -1.75269894555675043168e-001
  -1.74004719375256161618e-001
</dep>
<dep dBS21 frequency>
  -1.36212413319196468109e+001
  -1.26141809382710370357e+001
  -1.17043685575341562810e+001
  -1.08747223206412115815e+001
  -1.01057201626684687312e+001
  -9.39686110758019843558e+000
  -8.73415626505375009003e+000
  -8.10849350142784963680e+000
  -7.51680060534222960200e+000
  -6.96490034362248344735e+000
  -6.44105667799119707695e+000
  -5.93654058440474052816e+000
  -5.45129797036722507642e+000
  -4.98293671592284592720e+000
  -4.52643615049947989348e+000
  -4.08252248432091402464e+000
  -3.64758892673668233542e+000
  -3.22799130796415845168e+000
  -2.82333242070161416493e+000
  -2.42696596066416603321e+000
  -2.03899457828424823802e+000
  -1.66110082758913124579e+000
  -1.29122005119733818113e+000
  -9.28393968609367736811e-001
  -5.68607859482392896666e-001
  -2.12646635134047912175e-001
  +1.39916266192019994596e-001
  +4.85738320930523381769e-001
  +8.26129438966405449385e-001
  +1.17457731515934171718e+000
  +1.51791413524332430285e+000
  +1.85960371807998647853e+000
  +2.20133333219553151139e+000
  +2.54354471226621070556e+000
  +2.87526617357055425117e+000
  +3.20904444821372436536e+000
  +3.54891728586502619436e+000
  +3.88891852524808667724e+000
  +4.23044326965719541533e+000
  +4.58262249836233781508e+000
  +4.93880558901891131285e+000
  +5.29985421647097521003e+000
  +5.65208042993429593537e+000
  +6.00324767788565250015e+000
  +6.36845463506075937232e+000
  +6.73693281580090186367e+000
  +7.10801093617701695848e+000
  +7.49505514163380492931e+000
  +7.89341913707244202669e+000
  +8.29892414793633292902e+000
  +8.70572898369403702645e+000
  +9.11074085609433836908e+000
  +9.52653137580115760841e+000
  +9.95600073011336661466e+000
  +1.04057813640101297636e+001
  +1.08739778708368994842e+001
  +1.13630334274119206839e+001
  +1.18683240059590779936e+001
  +1.23920484020743231213e+001
  +1.29251353373259263435e+001
  +1.34861913258097914081e+001
  +1.40786176648722758387e+001
  +1.47007762730810576102e+001
  +1.53585797278676174926e+001
  +1.60577792088687623107e+001
  +1.68081531293310035835e+001
  +1.76143940189588334988e+001
  +1.84268832670832978238e+001
  +1.93030592214839273879e+001
  +2.02763265579543130457e+001
  +2.12967489199644148812e+001
  +2.23562561908333670146e+001
  +2.34550060147694949819e+001
  +2.45037548189170770740e+001
  +2.53564034624563916509e+001
  +2.59051934742200486994e+001
  +2.60457516852990913492e+001
  +2.57251596276501430793e+001
  +2.50324922442284787394e+001
  +2.41146913530577648999e+001
  +2.31236071494862507336e+001
  +2.21301974008804052119e+001
  +2.11724324205121980924e+001
  +2.02836804155091563473e+001
  +1.94725323448978606677e+001
  +1.86987792566863504362e+001
  +1.79739468079193578376e+001
  +1.73139789327457869206e+001
  +1.66884699485415950448e+001
  +1.60929380737307461402e+001
  +1.55384427857127338513e+001
  +1.50199444973002016468e+001
  +1.45508163420349703188e+001
  +1.41048133567546187805e+001
  +1.36799041735823028176e+001
  +1.32741794507815047410e+001
  +1.28853725311299189826e+001
  +1.25108117380006795827e+001
  +1.21505130088783470654e+001
  +1.18035377152843814486e+001
  +1.14797381585214548494e+001
  +1.11696687690218858791e+001
  +1.08731399468646046103e+001
  +1.05805048548605444836e+001
  +1.02930264656266636791e+001
  +1.00234361376486891260e+001
  +9.76041024897037523544e+000
  +9.49977712650257899440e+000
  +9.25506722619947730379e+000
  +9.02222775266176846287e+000
  +8.80060320570890475267e+000
  +8.58315158848376924539e+000
  +8.36774109769480922694e+000
  +8.15832114599172086855e+000
  +7.95418467906713821947e+000
  +7.75369074813019487635e+000
  +7.55951283826501363450e+000
  +7.37325275812328051472e+000
  +7.19312945028464589825e+000
  +7.01737870395767160403e+000
  +6.84122274263318885801e+000
  +6.67015604715300014504e+000
  +6.50503659796905431278e+000
  +6.33831842724629002106e+000
  +6.17353249395885406159e+000
  +6.01912199407799874962e+000
  +5.86719290628364120721e+000
  +5.71757202055365265636e+000
  +5.57024990686620746771e+000
  +5.42495583315933949109e+000
  +5.28087535193303914127e+000
  +5.13979866514533423327e+000
  +5.00166316373029040676e+000
  +4.87125252802149866227e+000
  +4.74412603663343013238e+000
  +4.62020955894960572152e+000
  +4.49507512370018069703e+000
  +4.36896007950802101050e+000
  +4.24798121270200823574e+000
  +4.12887201585161811579e+000
  +4.01108242247020374549e+000
  +3.89432984786286295886e+000
  +3.77874490300644438889e+000
  +3.66925761285114582222e+000
  +3.56007501888778765675e+000
  +3.44842856426671717784e+000
  +3.34047916790631038708e+000
  +3.23517480691135439486e+000
  +3.12767190396502670069e+000
  +3.02440466925542406074e+000
  +2.92982495535353004712e+000
  +2.83481564569740163151e+000
  +2.73997757457015600480e+000
  +2.64914527050954040632e+000
  +2.55750224674198989305e+000
  +2.46382184873640674994e+000
  +2.37378782529615062202e+000
  +2.28575054663157573032e+000
  +2.19881299120401774161e+000
  +2.11399391518430945780e+000
  +2.03201567356164281009e+000
  +1.94829989841761030966e+000
  +1.86487637182340182385e+000
  +1.78674205883044123766e+000
  +1.70647913117223049007e+000
  +1.62334441523695494070e+000
  +1.54445362790848861323e+000
  +1.46675984964591776816e+000
  +1.38733865891013974370e+000
  +1.30938563881073499751e+000
  +1.23297990147930791593e+000
  +1.15480287565702854913e+000
  +1.07709220264689631286e+000
  +1.00238986304930977056e+000
  +9.30236681038141832722e-001
  +8.60496337532556276884e-001
  +7.95111183503861562727e-001
  +7.29680686621470231401e-001
  +6.61446760114739351621e-001
  +5.93661539331239884731e-001
  +5.26200213847792475086e-001
  +4.58491090649509991373e-001
  +3.91907245348973642951e-001
  +3.28252919207536963953e-001
  +2.62124853453136130721e-001
  +1.94422118508910224399e-001
  +1.27637907357730506774e-001
  +6.21947772730630579763e-002
  -4.31956494894963709784e-004
  -6.56398542633497561472e-002
  -1.32174366523067743362e-001
</dep>
<dep S[1,1] frequency>
  +9.88194288470014892134e-001-j5.66104609308737752316e-003
  +9.88202905176268076026e-001-j6.31721836570117191434e-003
  +9.88249949846212061288e-001-j6.96867901037994882940e-003
  +9.88360401153470569113e-001-j7.60356167703020273396e-003
  +9.88484848414048600240e-001-j8.30750019925373048291e-003
  +9.88544344328738833205e-001-j9.01528170140344572991e-003
  +9.88638773950072491381e-001-j9.73514839079838573133e-003
  +9.88761011315007820599e-001-j1.04587004181278253601e-002
  +9.88934938043618538828e-001-j1.12010550079117802980e-002
  +9.89041719104744920799e-001-j1.19566991792654422205e-002
  +9.89128381673015422137e-001-j1.27228535632495677599e-002
  +9.89269972859655122299e-001-j1.34988517947912389783e-002
  +9.89436561306235584645e-001-j1.42937916959712894155e-002
  +9.89630891603936468925e-001-j1.51118244755547043862e-002
  +9.89802490580613980597e-001-j1.59204167016272664370e-002
  +9.89990114868941062376e-001-j1.67463549014190693498e-002
  +9.90246346400274646271e-001-j1.76418710768570206893e-002
  +9.90472522292745405359e-001-j1.85292262007250088662e-002
  +9.90662806182639243957e-001-j1.94072445234114605850e-002
  +9.90894737428904437415e-001-j2.03514897927191580618e-002
  +9.91155235498719533460e-001-j2.13241785087497776052e-002
  +9.91442024175940628261e-001-j2.22891342880487432210e-002
  +9.91760227666074078989e-001-j2.32748389905367211727e-002
  +9.92110710863321254571e-001-j2.42866033516788079605e-002
