<Qucs Dataset 0.0.19>
<indep frequency 101>
  +3.00000000000000000000e+008
  +3.04000000000000000000e+008
  +3.08000000000000000000e+008
  +3.12000000000000000000e+008
  +3.16000000000000000000e+008
  +3.20000000000000000000e+008
  +3.24000000000000000000e+008
  +3.28000000000000000000e+008
  +3.32000000000000000000e+008
  +3.36000000000000000000e+008
  +3.40000000000000000000e+008
  +3.44000000000000000000e+008
  +3.48000000000000000000e+008
  +3.52000000000000000000e+008
  +3.56000000000000000000e+008
  +3.60000000000000000000e+008
  +3.64000000000000000000e+008
  +3.68000000000000000000e+008
  +3.72000000000000000000e+008
  +3.76000000000000000000e+008
  +3.80000000000000000000e+008
  +3.84000000000000000000e+008
  +3.88000000000000000000e+008
  +3.92000000000000000000e+008
  +3.96000000000000000000e+008
  +4.00000000000000000000e+008
  +4.04000000000000000000e+008
  +4.08000000000000000000e+008
  +4.12000000000000000000e+008
  +4.16000000000000000000e+008
  +4.20000000000000000000e+008
  +4.24000000000000000000e+008
  +4.28000000000000000000e+008
  +4.32000000000000000000e+008
  +4.36000000000000000000e+008
  +4.40000000000000000000e+008
  +4.44000000000000000000e+008
  +4.48000000000000000000e+008
  +4.52000000000000000000e+008
  +4.56000000000000000000e+008
  +4.60000000000000000000e+008
  +4.64000000000000000000e+008
  +4.68000000000000000000e+008
  +4.72000000000000000000e+008
  +4.76000000000000000000e+008
  +4.80000000000000000000e+008
  +4.84000000000000000000e+008
  +4.88000000000000000000e+008
  +4.92000000000000000000e+008
  +4.96000000000000000000e+008
  +5.00000000000000000000e+008
  +5.04000000000000000000e+008
  +5.08000000000000000000e+008
  +5.12000000000000000000e+008
  +5.16000000000000000000e+008
  +5.20000000000000000000e+008
  +5.24000000000000000000e+008
  +5.28000000000000000000e+008
  +5.32000000000000000000e+008
  +5.36000000000000000000e+008
  +5.40000000000000000000e+008
  +5.44000000000000000000e+008
  +5.48000000000000000000e+008
  +5.52000000000000000000e+008
  +5.56000000000000000000e+008
  +5.60000000000000000000e+008
  +5.64000000000000000000e+008
  +5.68000000000000000000e+008
  +5.72000000000000000000e+008
  +5.76000000000000000000e+008
  +5.80000000000000000000e+008
  +5.84000000000000000000e+008
  +5.88000000000000000000e+008
  +5.92000000000000000000e+008
  +5.96000000000000000000e+008
  +6.00000000000000000000e+008
  +6.04000000000000000000e+008
  +6.08000000000000000000e+008
  +6.12000000000000000000e+008
  +6.16000000000000000000e+008
  +6.20000000000000000000e+008
  +6.24000000000000000000e+008
  +6.28000000000000000000e+008
  +6.32000000000000000000e+008
  +6.36000000000000000000e+008
  +6.40000000000000000000e+008
  +6.44000000000000000000e+008
  +6.48000000000000000000e+008
  +6.52000000000000000000e+008
  +6.56000000000000000000e+008
  +6.60000000000000000000e+008
  +6.64000000000000000000e+008
  +6.68000000000000000000e+008
  +6.72000000000000000000e+008
  +6.76000000000000000000e+008
  +6.80000000000000000000e+008
  +6.84000000000000000000e+008
  +6.88000000000000000000e+008
  +6.92000000000000000000e+008
  +6.96000000000000000000e+008
  +7.00000000000000000000e+008
</indep>
<dep S11dB_d frequency>
  -6.77576607447148226981e+000
  -6.98489014100815897024e+000
  -7.19862674945006375538e+000
  -7.41710857747709084720e+000
  -7.64047789734640581116e+000
  -7.86888745084162177790e+000
  -8.10250141926738365328e+000
  -8.34149650152622434973e+000
  -8.58606311547138822959e+000
  -8.83640674029967776448e+000
  -9.09274942082340231764e+000
  -9.35533145815543321078e+000
  -9.62441331579998760049e+000
  -9.90027777554646704061e+000
  -1.01832323841474519099e+001
  -1.04736122398220583563e+001
  -1.07717831775454229160e+001
  -1.10781454243628054712e+001
  -1.13931378112511723089e+001
  -1.17172426471984039154e+001
  -1.20509913853151040541e+001
  -1.23949712414521364678e+001
  -1.27498329650170347804e+001
  -1.31163000122498161204e+001
  -1.34951794379668736923e+001
  -1.38873749080386872379e+001
  -1.42939023491202732430e+001
  -1.47159089050596563197e+001
  -1.51546960763291949092e+001
  -1.56117482022123059693e+001
  -1.60887678386659302987e+001
  -1.65877201380596055458e+001
  -1.71108891276257004677e+001
  -1.76609499324752121652e+001
  -1.82410626901603372119e+001
  -1.88549964744875424572e+001
  -1.95072955207731304483e+001
  -2.02035063483897729952e+001
  -2.09504946659704032186e+001
  -2.17568982980715652786e+001
  -2.26337927557860218997e+001
  -2.35957016311475271664e+001
  -2.46621908903631883447e+001
  -2.58605046779356619879e+001
  -2.72301811700123899129e+001
  -2.88317468116207749063e+001
  -3.07647321669991100634e+001
  -3.32102245124852260005e+001
  -3.65526006731383503734e+001
  -4.18517378419618921725e+001
  -5.24876884084387356211e+001
  -4.41882169199363161738e+001
  -3.79940145395585915367e+001
  -3.43954977749022248190e+001
  -3.18808491574082850661e+001
  -2.99563575769783518865e+001
  -2.84026680816371808191e+001
  -2.71034986439063629859e+001
  -2.59898470919746635843e+001
  -2.50174282732940653773e+001
  -2.41561309838255056093e+001
  -2.33845531941547051247e+001
  -2.26869389162767340906e+001
  -2.20513527171467806909e+001
  -2.14685367538198335069e+001
  -2.09311654504067270466e+001
  -2.04333426232587491711e+001
  -1.99702522028879023708e+001
  -1.95379095001858793523e+001
  -1.91329801776894896648e+001
  -1.87526459532477787207e+001
  -1.83945032702701780636e+001
  -1.80564856778786690938e+001
  -1.77368035609451908385e+001
  -1.74338967650907328277e+001
  -1.71463969414252375145e+001
  -1.68730973119660987436e+001
  -1.66129281670166264462e+001
  -1.63649368377200659097e+001
  -1.61282711971312977539e+001
  -1.59021659687928877958e+001
  -1.56859312880026955384e+001
  -1.54789430847721405371e+001
  -1.52806349506833001328e+001
  -1.50904912227137124603e+001
  -1.49080410714632307645e+001
  -1.47328534232837888851e+001
  -1.45645325786255135370e+001
  -1.44027144146993606455e+001
  -1.42470630809656633176e+001
  -1.40972681122189840153e+001
  -1.39530418970775382803e+001
  -1.38141174502011931935e+001
  -1.36802464450915532979e+001
  -1.35511974712828617839e+001
  -1.34267544854335341142e+001
  -1.33067154305224182309e+001
  -1.31908910012383167043e+001
  -1.30791035368789394511e+001
  -1.29711860257682616293e+001
  -1.28669812074576324079e+001
</dep>
<dep S11dB_c frequency>
  -1.84874344705580142545e+001
  -1.86378637682157375366e+001
  -1.87924364928938700814e+001
  -1.89513055885216665786e+001
  -1.91146339294667839681e+001
  -1.92825951911657824667e+001
  -1.94553748189598572083e+001
  -1.96331711087072910971e+001
  -1.98161964149841622884e+001
  -2.00046785053577771407e+001
  -2.01988620824190761027e+001
  -2.03990104991127907397e+001
  -2.06054076975577586950e+001
  -2.08183604072003589636e+001
  -2.10382006450345144799e+001
  -2.12652885690705559796e+001
  -2.15000157466470973588e+001
  -2.17428089120863852202e+001
  -2.19941343042857404555e+001
  -2.22545026950278881372e+001
  -2.25244752442970899153e+001
  -2.28046703513286708187e+001
  -2.30957717116976155580e+001
  -2.33985378444669009923e+001
  -2.37138134234045416804e+001
  -2.40425428383063319870e+001
  -2.43857865346556046404e+001
  -2.47447408438140854514e+001
  -2.51207622384463071796e+001
  -2.55153972535552142631e+001
  -2.59304197390321142791e+001
  -2.63678777105964883276e+001
  -2.68301529282276121080e+001
  -2.73200375897917169254e+001
  -2.78408344000620431302e+001
  -2.83964891204793445922e+001
  -2.89917691307487892516e+001
  -2.96325086014248313404e+001
  -3.03259525051590195233e+001
  -3.10812514846768195298e+001
  -3.19101946139058121332e+001
  -3.28283319235652655266e+001
  -3.38567651865276815215e+001
  -3.50251491062909110497e+001
  -3.63770387218464463785e+001
  -3.79801938106562104736e+001
  -3.99486158138028031317e+001
  -4.24971004254375444020e+001
  -4.61100750811397475104e+001
  -5.23148341366627533944e+001
  -6.37738679400193220204e+001
  -5.08899329658941326215e+001
  -4.53691053931047747483e+001
  -4.19995936636563698130e+001
  -3.95746689585044961746e+001
  -3.76808353784721106194e+001
  -3.61275728617851612512e+001
  -3.48114018998525835968e+001
  -3.36698552130921839876e+001
  -3.26623285702137451381e+001
  -3.17609418627047830341e+001
  -3.09457244063068088735e+001
  -3.02018810922973592881e+001
  -2.95181459291919949806e+001
  -2.88857421469617250409e+001
  -2.82976990851686167616e+001
  -2.77483883903942398774e+001
  -2.72332001238803016463e+001
  -2.67483110110721078456e+001
  -2.62905150689228825911e+001
  -2.58570974914630689057e+001
  -2.54457391793008511627e+001
  -2.50544433915172817251e+001
  -2.46814786407350155173e+001
  -2.43253336977709757605e+001
  -2.39846817496452366925e+001
  -2.36583515637982699786e+001
  -2.33453040768941022520e+001
  -2.30446132280501316814e+001
  -2.27554501454083712986e+001
  -2.24770700058476293748e+001
  -2.22088010433471438887e+001
  -2.19500352977743240501e+001
  -2.17002207835818552439e+001
  -2.14588548247145070036e+001
  -2.12254783533824529229e+001
  -2.09996710101676562488e+001
  -2.07810469140317586323e+001
  -2.05692509952759827740e+001
  -2.03639558039080803553e+001
  -2.01648587213540189111e+001
  -1.99716795158825206613e+001
  -1.97841581921494942264e+001
  -1.96020530934217873664e+001
  -1.94251392216959608561e+001
  -1.92532067463895053550e+001
  -1.90860596767848917921e+001
  -1.89235146771364952656e+001
  -1.87654000064533263981e+001
  -1.86115545675617539700e+001
  -1.84618270522264857902e+001
</dep>
<dep S11dB_b frequency>
  -1.80390377334752649574e+001
  -1.81809732102972994028e+001
  -1.83272501918617152228e+001
  -1.84780482661100400321e+001
  -1.86335589746184808746e+001
  -1.87939868579120386016e+001
  -1.89595506150077497409e+001
  -1.91304843919172213873e+001
  -1.93070392159819022027e+001
  -1.94894845953912074776e+001
  -1.96781103060913018510e+001
  -1.98732283915858722878e+001
  -2.00751754049136721392e+001
  -2.02843149264167195156e+001
  -2.05010403958345008846e+001
  -2.07257783028007800397e+001
  -2.09589917859717118631e+001
  -2.12011846976984728030e+001
  -2.14529061981776436596e+001
  -2.17147559499657774040e+001
  -2.19873899898978528711e+001
  -2.22715273595048017796e+001
  -2.25679575747811327346e+001
  -2.28775490079043990477e+001
  -2.32012582310919235340e+001
  -2.35401403259890429354e+001
  -2.38953600739082716586e+001
  -2.42682037848283407300e+001
  -2.46600912496114759165e+001
  -2.50725868322548741673e+001
  -2.55074079257010808419e+001
  -2.59664276534712037403e+001
  -2.64516664326019288467e+001
  -2.69652631787462446766e+001
  -2.75094104425837571171e+001
  -2.80862267932057498854e+001
  -2.86975213422138750730e+001
  -2.93443749219060805444e+001
  -3.00264142831315758997e+001
  -3.07405858313892501599e+001
  -3.14791547218030167699e+001
  -3.22266283784377236543e+001
  -3.29555409697544661185e+001
  -3.36220166129662416665e+001
  -3.41643362075374241726e+001
  -3.45105900625853365682e+001
  -3.45999250780913740755e+001
  -3.44097192940120280014e+001
  -3.39676590319872531154e+001
  -3.33371018587117404763e+001
  -3.25896518025600769874e+001
  -3.17852877696116742356e+001
  -3.09659891466760015533e+001
  -3.01577348670551579346e+001
  -2.93750169999810921695e+001
  -2.86249526691807574252e+001
  -2.79102356161439573157e+001
  -2.72310402656660599519e+001
  -2.65861833888665941572e+001
  -2.59738096528815667341e+001
  -2.53917862018816329339e+001
  -2.48379237998791282394e+001
  -2.43100960716501148795e+001
  -2.38062995250505551326e+001
  -2.33246795886594604497e+001
  -2.28635375161744534012e+001
  -2.24213268690077605072e+001
  -2.19966446616255524305e+001
  -2.15882201099157811086e+001
  -2.11949026540542639907e+001
  -2.08156501770288535624e+001
  -2.04495178979428295918e+001
  -2.00956481610563244544e+001
  -1.97532611932546515732e+001
  -1.94216468200118725917e+001
  -1.91001570863593670424e+001
  -1.87881997088488290615e+001
  -1.84852322773344788231e+001
  -1.81907571257533753339e+001
  -1.79043167954447532964e+001
  -1.76254900208361995340e+001
  -1.73538881743128321489e+001
  -1.70891521140842144177e+001
  -1.68309493854988083683e+001
  -1.65789717323454439679e+001
  -1.63329328801566049378e+001
  -1.60925665583852541829e+001
  -1.58576247325957648826e+001
  -1.56278760215388157206e+001
  -1.54031042772245463368e+001
  -1.51831073089237342799e+001
  -1.49676957344648720039e+001
  -1.47566919443074144880e+001
  -1.45499291656976481590e+001
  -1.43472506157963213269e+001
  -1.41485087340368096420e+001
  -1.39535644851613902517e+001
  -1.37622867254133556258e+001
  -1.35745516252596249984e+001
  -1.33902421427975308887e+001
  -1.32092475426789341952e+001
</dep>
<dep S11dB_a frequency>
  -1.02981963121812469808e+001
  -1.02981963121812469808e+001
  -1.02981963121812469808e+001
  -1.02981963121812469808e+001
  -1.02981963121812469808e+001
  -1.02981963121812469808e+001
  -1.02981963121812469808e+001
  -1.02981963121812469808e+001
  -1.02981963121812469808e+001
  -1.02981963121812469808e+001
  -1.02981963121812469808e+001
  -1.02981963121812469808e+001
  -1.02981963121812469808e+001
  -1.02981963121812469808e+001
  -1.02981963121812469808e+001
  -1.02981963121812469808e+001
  -1.02981963121812469808e+001
  -1.02981963121812469808e+001
  -1.02981963121812469808e+001
  -1.02981963121812469808e+001
  -1.02981963121812469808e+001
  -1.02981963121812469808e+001
  -1.02981963121812469808e+001
  -1.02981963121812469808e+001
  -1.02981963121812469808e+001
  -1.02981963121812469808e+001
  -1.02981963121812469808e+001
  -1.02981963121812469808e+001
  -1.02981963121812469808e+001
  -1.02981963121812469808e+001
  -1.02981963121812469808e+001
  -1.02981963121812469808e+001
  -1.02981963121812469808e+001
  -1.02981963121812469808e+001
  -1.02981963121812469808e+001
  -1.02981963121812469808e+001
  -1.02981963121812469808e+001
  -1.02981963121812469808e+001
  -1.02981963121812469808e+001
  -1.02981963121812469808e+001
  -1.02981963121812469808e+001
  -1.02981963121812469808e+001
  -1.02981963121812469808e+001
  -1.02981963121812469808e+001
  -1.02981963121812469808e+001
  -1.02981963121812469808e+001
  -1.02981963121812469808e+001
  -1.02981963121812469808e+001
  -1.02981963121812469808e+001
  -1.02981963121812469808e+001
  -1.02981963121812469808e+001
  -1.02981963121812469808e+001
  -1.02981963121812469808e+001
  -1.02981963121812469808e+001
  -1.02981963121812469808e+001
  -1.02981963121812469808e+001
  -1.02981963121812469808e+001
  -1.02981963121812469808e+001
  -1.02981963121812469808e+001
  -1.02981963121812469808e+001
  -1.02981963121812469808e+001
  -1.02981963121812469808e+001
  -1.02981963121812469808e+001
  -1.02981963121812469808e+001
  -1.02981963121812469808e+001
  -1.02981963121812469808e+001
  -1.02981963121812469808e+001
  -1.02981963121812469808e+001
  -1.02981963121812469808e+001
  -1.02981963121812469808e+001
  -1.02981963121812469808e+001
  -1.02981963121812469808e+001
  -1.02981963121812469808e+001
  -1.02981963121812469808e+001
  -1.02981963121812469808e+001
  -1.02981963121812469808e+001
  -1.02981963121812469808e+001
  -1.02981963121812469808e+001
  -1.02981963121812469808e+001
  -1.02981963121812469808e+001
  -1.02981963121812469808e+001
  -1.02981963121812469808e+001
  -1.02981963121812469808e+001
  -1.02981963121812469808e+001
  -1.02981963121812469808e+001
  -1.02981963121812469808e+001
  -1.02981963121812469808e+001
  -1.02981963121812469808e+001
  -1.02981963121812469808e+001
  -1.02981963121812469808e+001
  -1.02981963121812469808e+001
  -1.02981963121812469808e+001
  -1.02981963121812469808e+001
  -1.02981963121812469808e+001
  -1.02981963121812469808e+001
  -1.02981963121812469808e+001
  -1.02981963121812469808e+001
  -1.02981963121812469808e+001
  -1.02981963121812469808e+001
  -1.02981963121812469808e+001
  -1.02981963121812469808e+001
</dep>
<dep S[2,2] frequency>
  +1.20739840865958458771e-001-j3.36005760402414144217e-002
  +1.18703626624271418866e-001-j3.33394257762407719703e-002
  +1.16646160269904153317e-001-j3.30490509422542433349e-002
  +1.14567732829680080098e-001-j3.27290167313917801373e-002
  +1.12468643209836571817e-001-j3.23788881633794087267e-002
  +1.10349198330045084049e-001-j3.19982302092041634434e-002
  +1.08209713256757433797e-001-j3.15866079213333594833e-002
  +1.06050511335713359973e-001-j3.11435865695889324556e-002
  +1.03871924323442166305e-001-j3.06687317827567737516e-002
  +1.01674292517584419215e-001-j3.01616096960033164276e-002
  +9.94579648858547882284e-002-j2.96217871041749569727e-002
  +9.72232991934566248560e-002-j2.90488316210458438760e-002
  +9.49706621287593200087e-002-j2.84423118445779263275e-002
  +9.27004294270392659172e-002-j2.78017975282551441096e-002
  +9.04129859920792533501e-002-j2.71268597585447267251e-002
  +8.81087260154167495330e-002-j2.64170711385346979050e-002
  +8.57880530930237861220e-002-j2.56720059777944507873e-002
  +8.34513803391975228507e-002-j2.48912404884964952312e-002
  +8.10991304974299498376e-002-j2.40743529878297835012e-002
  +7.87317360480275230117e-002-j2.32209241067333760355e-002
  +7.63496393122338190551e-002-j2.23305370049684537292e-002
  +7.39532925526150686224e-002-j2.14027775925426100301e-002
  +7.15431580694559920985e-002-j2.04372347574877065435e-002
  +6.91197082929058681522e-002-j1.94335005999899876339e-002
  +6.66834258706162641417e-002-j1.83911706728619936402e-002
  +6.42348037506031421806e-002-j1.73098442283319275958e-002
  +6.17743452590576169747e-002-j1.61891244711237503040e-002
  +5.93025641728336383451e-002-j1.50286188177882751305e-002
  +5.68199847863277707205e-002-j1.38279391622330716238e-002
  +5.43271419724680182384e-002-j1.25867021473965983586e-002
  +5.18245812375195402666e-002-j1.13045294429901504313e-002
  +4.93128587694202091818e-002-j9.98104802923005171578e-003
  +4.67925414793438632088e-002-j8.61589048646610282389e-003
  +4.42642070361969341974e-002-j7.20869529059747684435e-003
  +4.17284438937466917174e-002-j5.75910711416471789853e-003
  +3.91858513100767358317e-002-j4.26677713298040384160e-003
  +3.66370393590672027706e-002-j2.73136333816004130831e-003
  +3.40826289335936505331e-002-j1.15253085339361849293e-003
  +3.15232517401382028588e-002+j4.70047742712698059155e-004
  +2.89595502845071406384e-002+j2.13669208940930844751e-003
  +2.63921778483518498781e-002+j3.84771371189068702584e-003
  +2.38217984561843731939e-002+j5.60341568491023924586e-003
  +2.12490868325915238657e-002+j7.40409229215643806959e-003
  +1.86747283493420290768e-002+j9.25002868162644147076e-003
  +1.60994189620940475471e-002+j1.11415005172686969875e-002
  +1.35238651364083528605e-002+j1.30787736271590314396e-002
  +1.09487837627809669883e-002+j1.50621036485120117498e-002
  +8.37490206040869544779e-003+j1.70917356698276901028e-002
  +5.80295746941700274490e-003+j1.91679038705040993840e-002
  +3.23369753127406012183e-003+j2.12908311582509744697e-002
  +6.67879757134559604026e-004+j2.34607288046660387992e-002
  -1.89372851614411086274e-003+j2.56777960793418344454e-002
  -4.45035028255325038060e-003+j2.79422198828984599817e-002
  -7.00119903628892981118e-003+j3.02541743793434056431e-002
  -9.54547895413093705486e-003+j3.26138206281806897202e-002
  -1.20823850910569685624e-002+j3.50213062167096106370e-002
  -1.46111035892887430876e-002+j3.74767648929655167178e-002
  -1.71308119009492276774e-002+j3.99803161997683148554e-002
  -1.96406790245028384234e-002+j4.25320651103693256334e-002
